Title: *** spice deck for cell a_characterization_tb{sch} from library testlibrary
Date: Fri Jul 15 16:11:55  2016
Plotname: DC transfer characteristic
Flags: real
No. Variables: 5
No. Points: 34
Variables:
	0	v-sweep	voltage
	1	drain	voltage
	2	gate	voltage
	3	i(vvds)	current
	4	i(vvgs)	current
Values:
 0	0.000000000000000e+00
	3.300000000000000e+00
	0.000000000000000e+00
	-3.317790486789818e-12
	0.000000000000000e+00

 1	1.000000000000000e-01
	3.300000000000000e+00
	1.000000000000000e-01
	-3.375966173280176e-12
	0.000000000000000e+00

 2	2.000000000000000e-01
	3.300000000000000e+00
	2.000000000000000e-01
	-1.376898595140119e-11
	0.000000000000000e+00

 3	3.000000000000000e-01
	3.300000000000000e+00
	3.000000000000000e-01
	-2.491358230827245e-10
	0.000000000000000e+00

 4	4.000000000000000e-01
	3.300000000000000e+00
	4.000000000000000e-01
	-5.391767921025803e-09
	0.000000000000000e+00

 5	5.000000000000000e-01
	3.300000000000000e+00
	5.000000000000000e-01
	-9.228133546201889e-08
	0.000000000000000e+00

 6	6.000000000000000e-01
	3.300000000000000e+00
	6.000000000000000e-01
	-9.586736036126808e-07
	0.000000000000000e+00

 7	7.000000000000000e-01
	3.300000000000000e+00
	7.000000000000000e-01
	-5.196696124976086e-06
	0.000000000000000e+00

 8	7.999999999999999e-01
	3.300000000000000e+00
	7.999999999999999e-01
	-1.461906724031792e-05
	0.000000000000000e+00

 9	8.999999999999999e-01
	3.300000000000000e+00
	8.999999999999999e-01
	-2.761095606373942e-05
	0.000000000000000e+00

 10	9.999999999999999e-01
	3.300000000000000e+00
	9.999999999999999e-01
	-4.266375239536657e-05
	0.000000000000000e+00

 11	1.100000000000000e+00
	3.300000000000000e+00
	1.100000000000000e+00
	-5.910473932102533e-05
	0.000000000000000e+00

 12	1.200000000000000e+00
	3.300000000000000e+00
	1.200000000000000e+00
	-7.658559845769020e-05
	0.000000000000000e+00

 13	1.300000000000000e+00
	3.300000000000000e+00
	1.300000000000000e+00
	-9.487487404902240e-05
	0.000000000000000e+00

 14	1.400000000000000e+00
	3.300000000000000e+00
	1.400000000000000e+00
	-1.138005944083531e-04
	0.000000000000000e+00

 15	1.500000000000000e+00
	3.300000000000000e+00
	1.500000000000000e+00
	-1.332299569996032e-04
	0.000000000000000e+00

 16	1.600000000000000e+00
	3.300000000000000e+00
	1.600000000000000e+00
	-1.530585238489479e-04
	0.000000000000000e+00

 17	1.700000000000000e+00
	3.300000000000000e+00
	1.700000000000000e+00
	-1.732030467835877e-04
	0.000000000000000e+00

 18	1.800000000000000e+00
	3.300000000000000e+00
	1.800000000000000e+00
	-1.935963443666644e-04
	0.000000000000000e+00

 19	1.900000000000001e+00
	3.300000000000000e+00
	1.900000000000001e+00
	-2.141835516127344e-04
	0.000000000000000e+00

 20	2.000000000000000e+00
	3.300000000000000e+00
	2.000000000000000e+00
	-2.349193376356418e-04
	0.000000000000000e+00

 21	2.100000000000001e+00
	3.300000000000000e+00
	2.100000000000001e+00
	-2.557658209281222e-04
	0.000000000000000e+00

 22	2.200000000000001e+00
	3.300000000000000e+00
	2.200000000000001e+00
	-2.766909952716112e-04
	0.000000000000000e+00

 23	2.300000000000001e+00
	3.300000000000000e+00
	2.300000000000001e+00
	-2.976675341841428e-04
	0.000000000000000e+00

 24	2.400000000000001e+00
	3.300000000000000e+00
	2.400000000000001e+00
	-3.186718789018883e-04
	0.000000000000000e+00

 25	2.500000000000001e+00
	3.300000000000000e+00
	2.500000000000001e+00
	-3.396835403961518e-04
	0.000000000000000e+00

 26	2.600000000000001e+00
	3.300000000000000e+00
	2.600000000000001e+00
	-3.606845637125211e-04
	0.000000000000000e+00

 27	2.700000000000001e+00
	3.300000000000000e+00
	2.700000000000001e+00
	-3.816591156620142e-04
	0.000000000000000e+00

 28	2.800000000000001e+00
	3.300000000000000e+00
	2.800000000000001e+00
	-4.025931660232018e-04
	0.000000000000000e+00

 29	2.900000000000001e+00
	3.300000000000000e+00
	2.900000000000001e+00
	-4.234742392510427e-04
	0.000000000000000e+00

 30	3.000000000000001e+00
	3.300000000000000e+00
	3.000000000000001e+00
	-4.442912187534453e-04
	0.000000000000000e+00

 31	3.100000000000001e+00
	3.300000000000000e+00
	3.100000000000001e+00
	-4.650341897325383e-04
	0.000000000000000e+00

 32	3.200000000000002e+00
	3.300000000000000e+00
	3.200000000000002e+00
	-4.856943096496202e-04
	0.000000000000000e+00

 33	3.300000000000002e+00
	3.300000000000000e+00
	3.300000000000002e+00
	-5.062636978587776e-04
	0.000000000000000e+00

