Title: *** spice deck for cell a_characterization_tb{sch} from library testlibrary
Date: Fri Jul 15 16:11:55  2016
Plotname: DC transfer characteristic
Flags: real
No. Variables: 5
No. Points: 34
Variables:
	0	v-sweep	voltage
	1	drain	voltage
	2	gate	voltage
	3	i(vvds)	current
	4	i(vvgs)	current
Values:
 0	0.000000000000000e+00
	3.300000000000000e+00
	0.000000000000000e+00
	-3.407940596389381e-12
	0.000000000000000e+00

 1	1.000000000000000e-01
	3.300000000000000e+00
	1.000000000000000e-01
	-5.379696688123659e-12
	0.000000000000000e+00

 2	2.000000000000000e-01
	3.300000000000000e+00
	2.000000000000000e-01
	-4.310463097567663e-11
	0.000000000000000e+00

 3	3.000000000000000e-01
	3.300000000000000e+00
	3.000000000000000e-01
	-7.478946351113791e-10
	0.000000000000000e+00

 4	4.000000000000000e-01
	3.300000000000000e+00
	4.000000000000000e-01
	-1.273594740780482e-08
	0.000000000000000e+00

 5	5.000000000000000e-01
	3.300000000000000e+00
	5.000000000000000e-01
	-1.671198810448971e-07
	0.000000000000000e+00

 6	6.000000000000000e-01
	3.300000000000000e+00
	6.000000000000000e-01
	-1.383974255197984e-06
	0.000000000000000e+00

 7	7.000000000000000e-01
	3.300000000000000e+00
	7.000000000000000e-01
	-6.185742841946507e-06
	0.000000000000000e+00

 8	7.999999999999999e-01
	3.300000000000000e+00
	7.999999999999999e-01
	-1.554478378018587e-05
	0.000000000000000e+00

 9	8.999999999999999e-01
	3.300000000000000e+00
	8.999999999999999e-01
	-2.792244671390165e-05
	0.000000000000000e+00

 10	9.999999999999999e-01
	3.300000000000000e+00
	9.999999999999999e-01
	-4.213985743373172e-05
	0.000000000000000e+00

 11	1.100000000000000e+00
	3.300000000000000e+00
	1.100000000000000e+00
	-5.765681539093848e-05
	0.000000000000000e+00

 12	1.200000000000000e+00
	3.300000000000000e+00
	1.200000000000000e+00
	-7.417824279487562e-05
	0.000000000000000e+00

 13	1.300000000000000e+00
	3.300000000000000e+00
	1.300000000000000e+00
	-9.150078946396079e-05
	0.000000000000000e+00

 14	1.400000000000000e+00
	3.300000000000000e+00
	1.400000000000000e+00
	-1.094694320498135e-04
	0.000000000000000e+00

 15	1.500000000000000e+00
	3.300000000000000e+00
	1.500000000000000e+00
	-1.279619460907711e-04
	0.000000000000000e+00

 16	1.600000000000000e+00
	3.300000000000000e+00
	1.600000000000000e+00
	-1.468804639568333e-04
	0.000000000000000e+00

 17	1.700000000000000e+00
	3.300000000000000e+00
	1.700000000000000e+00
	-1.661456851111964e-04
	0.000000000000000e+00

 18	1.800000000000000e+00
	3.300000000000000e+00
	1.800000000000000e+00
	-1.856926266530223e-04
	0.000000000000000e+00

 19	1.900000000000001e+00
	3.300000000000000e+00
	1.900000000000001e+00
	-2.054674489277986e-04
	0.000000000000000e+00

 20	2.000000000000000e+00
	3.300000000000000e+00
	2.000000000000000e+00
	-2.254250642050870e-04
	0.000000000000000e+00

 21	2.100000000000001e+00
	3.300000000000000e+00
	2.100000000000001e+00
	-2.455273223649357e-04
	0.000000000000000e+00

 22	2.200000000000001e+00
	3.300000000000000e+00
	2.200000000000001e+00
	-2.657416254892020e-04
	0.000000000000000e+00

 23	2.300000000000001e+00
	3.300000000000000e+00
	2.300000000000001e+00
	-2.860398641209017e-04
	0.000000000000000e+00

 24	2.400000000000001e+00
	3.300000000000000e+00
	2.400000000000001e+00
	-3.063975967410038e-04
	0.000000000000000e+00

 25	2.500000000000001e+00
	3.300000000000000e+00
	2.500000000000001e+00
	-3.267934142376916e-04
	0.000000000000000e+00

 26	2.600000000000001e+00
	3.300000000000000e+00
	2.600000000000001e+00
	-3.472084456404012e-04
	0.000000000000000e+00

 27	2.700000000000001e+00
	3.300000000000000e+00
	2.700000000000001e+00
	-3.676259717577679e-04
	0.000000000000000e+00

 28	2.800000000000001e+00
	3.300000000000000e+00
	2.800000000000001e+00
	-3.880311210515686e-04
	0.000000000000000e+00

 29	2.900000000000001e+00
	3.300000000000000e+00
	2.900000000000001e+00
	-4.084106278066102e-04
	0.000000000000000e+00

 30	3.000000000000001e+00
	3.300000000000000e+00
	3.000000000000001e+00
	-4.287526370201356e-04
	0.000000000000000e+00

 31	3.100000000000001e+00
	3.300000000000000e+00
	3.100000000000001e+00
	-4.490465438360403e-04
	0.000000000000000e+00

 32	3.200000000000002e+00
	3.300000000000000e+00
	3.200000000000002e+00
	-4.692828580341590e-04
	0.000000000000000e+00

 33	3.300000000000002e+00
	3.300000000000000e+00
	3.300000000000002e+00
	-4.894530862658009e-04
	0.000000000000000e+00

