Title: *** spice deck for cell a_characterization_tb{sch} from library testlibrary
Date: Fri Jul 15 16:11:55  2016
Plotname: DC transfer characteristic
Flags: real
No. Variables: 5
No. Points: 34
Variables:
	0	v-sweep	voltage
	1	drain	voltage
	2	gate	voltage
	3	i(vvds)	current
	4	i(vvgs)	current
Values:
 0	0.000000000000000e+00
	3.300000000000000e+00
	0.000000000000000e+00
	-3.541167359344399e-12
	0.000000000000000e+00

 1	1.000000000000000e-01
	3.300000000000000e+00
	1.000000000000000e-01
	-7.489120434911456e-12
	0.000000000000000e+00

 2	2.000000000000000e-01
	3.300000000000000e+00
	2.000000000000000e-01
	-7.586242745105665e-11
	0.000000000000000e+00

 3	3.000000000000000e-01
	3.300000000000000e+00
	3.000000000000000e-01
	-1.226434953593980e-09
	0.000000000000000e+00

 4	4.000000000000000e-01
	3.300000000000000e+00
	4.000000000000000e-01
	-1.865517518240267e-08
	0.000000000000000e+00

 5	5.000000000000000e-01
	3.300000000000000e+00
	5.000000000000000e-01
	-2.173971891394899e-07
	0.000000000000000e+00

 6	6.000000000000000e-01
	3.300000000000000e+00
	6.000000000000000e-01
	-1.625488890599769e-06
	0.000000000000000e+00

 7	7.000000000000000e-01
	3.300000000000000e+00
	7.000000000000000e-01
	-6.666746964700820e-06
	0.000000000000000e+00

 8	7.999999999999999e-01
	3.300000000000000e+00
	7.999999999999999e-01
	-1.596791236702089e-05
	0.000000000000000e+00

 9	8.999999999999999e-01
	3.300000000000000e+00
	8.999999999999999e-01
	-2.805691397700372e-05
	0.000000000000000e+00

 10	9.999999999999999e-01
	3.300000000000000e+00
	9.999999999999999e-01
	-4.188571927166151e-05
	0.000000000000000e+00

 11	1.100000000000000e+00
	3.300000000000000e+00
	1.100000000000000e+00
	-5.696888852790849e-05
	0.000000000000000e+00

 12	1.200000000000000e+00
	3.300000000000000e+00
	1.200000000000000e+00
	-7.303551526138818e-05
	0.000000000000000e+00

 13	1.300000000000000e+00
	3.300000000000000e+00
	1.300000000000000e+00
	-8.989588354246791e-05
	0.000000000000000e+00

 14	1.400000000000000e+00
	3.300000000000000e+00
	1.400000000000000e+00
	-1.074035884718327e-04
	0.000000000000000e+00

 15	1.500000000000000e+00
	3.300000000000000e+00
	1.500000000000000e+00
	-1.254420397667211e-04
	0.000000000000000e+00

 16	1.600000000000000e+00
	3.300000000000000e+00
	1.600000000000000e+00
	-1.439170734225392e-04
	0.000000000000000e+00

 17	1.700000000000000e+00
	3.300000000000000e+00
	1.700000000000000e+00
	-1.627517974505110e-04
	0.000000000000000e+00

 18	1.800000000000000e+00
	3.300000000000000e+00
	1.800000000000000e+00
	-1.818827504953546e-04
	0.000000000000000e+00

 19	1.900000000000001e+00
	3.300000000000000e+00
	1.900000000000001e+00
	-2.012570005689440e-04
	0.000000000000000e+00

 20	2.000000000000000e+00
	3.300000000000000e+00
	2.000000000000000e+00
	-2.208299423096527e-04
	0.000000000000000e+00

 21	2.100000000000001e+00
	3.300000000000000e+00
	2.100000000000001e+00
	-2.405636155908830e-04
	0.000000000000000e+00

 22	2.200000000000001e+00
	3.300000000000000e+00
	2.200000000000001e+00
	-2.604254148388385e-04
	0.000000000000000e+00

 23	2.300000000000001e+00
	3.300000000000000e+00
	2.300000000000001e+00
	-2.803870930434549e-04
	0.000000000000000e+00

 24	2.400000000000001e+00
	3.300000000000000e+00
	2.400000000000001e+00
	-3.004239895010308e-04
	0.000000000000000e+00

 25	2.500000000000001e+00
	3.300000000000000e+00
	2.500000000000001e+00
	-3.205144282998340e-04
	0.000000000000000e+00

 26	2.600000000000001e+00
	3.300000000000000e+00
	2.600000000000001e+00
	-3.406392475220343e-04
	0.000000000000000e+00

 27	2.700000000000001e+00
	3.300000000000000e+00
	2.700000000000001e+00
	-3.607814285189193e-04
	0.000000000000000e+00

 28	2.800000000000001e+00
	3.300000000000000e+00
	2.800000000000001e+00
	-3.809258016231887e-04
	0.000000000000000e+00

 29	2.900000000000001e+00
	3.300000000000000e+00
	2.900000000000001e+00
	-4.010588098730672e-04
	0.000000000000000e+00

 30	3.000000000000001e+00
	3.300000000000000e+00
	3.000000000000001e+00
	-4.211683163575231e-04
	0.000000000000000e+00

 31	3.100000000000001e+00
	3.300000000000000e+00
	3.100000000000001e+00
	-4.412434439569068e-04
	0.000000000000000e+00

 32	3.200000000000002e+00
	3.300000000000000e+00
	3.200000000000002e+00
	-4.612744387042511e-04
	0.000000000000000e+00

 33	3.300000000000002e+00
	3.300000000000000e+00
	3.300000000000002e+00
	-4.812525500605958e-04
	0.000000000000000e+00

