Title: *** spice deck for cell a_characterization_tb{sch} from library testlibrary
Date: Fri Jul 15 16:11:55  2016
Plotname: DC transfer characteristic
Flags: real
No. Variables: 5
No. Points: 34
Variables:
	0	v-sweep	voltage
	1	drain	voltage
	2	gate	voltage
	3	i(vvds)	current
	4	i(vvgs)	current
Values:
 0	0.000000000000000e+00
	3.300000000000000e+00
	0.000000000000000e+00
	-2.324762604644093e-11
	0.000000000000000e+00

 1	1.000000000000000e-01
	3.300000000000000e+00
	1.000000000000000e-01
	-1.992259690553055e-10
	0.000000000000000e+00

 2	2.000000000000000e-01
	3.300000000000000e+00
	2.000000000000000e-01
	-1.930932747029601e-09
	0.000000000000000e+00

 3	3.000000000000000e-01
	3.300000000000000e+00
	3.000000000000000e-01
	-1.778551395048567e-08
	0.000000000000000e+00

 4	4.000000000000000e-01
	3.300000000000000e+00
	4.000000000000000e-01
	-1.411496173275850e-07
	0.000000000000000e+00

 5	5.000000000000000e-01
	3.300000000000000e+00
	5.000000000000000e-01
	-8.756217440009095e-07
	0.000000000000000e+00

 6	6.000000000000000e-01
	3.300000000000000e+00
	6.000000000000000e-01
	-3.677513279676248e-06
	0.000000000000000e+00

 7	7.000000000000000e-01
	3.300000000000000e+00
	7.000000000000000e-01
	-9.705051482900018e-06
	0.000000000000000e+00

 8	7.999999999999999e-01
	3.300000000000000e+00
	7.999999999999999e-01
	-1.836273949917810e-05
	0.000000000000000e+00

 9	8.999999999999999e-01
	3.300000000000000e+00
	8.999999999999999e-01
	-2.871618786493002e-05
	0.000000000000000e+00

 10	9.999999999999999e-01
	3.300000000000000e+00
	9.999999999999999e-01
	-4.026280328872645e-05
	0.000000000000000e+00

 11	1.100000000000000e+00
	3.300000000000000e+00
	1.100000000000000e+00
	-5.276336771675716e-05
	0.000000000000000e+00

 12	1.200000000000000e+00
	3.300000000000000e+00
	1.200000000000000e+00
	-6.607360403521056e-05
	0.000000000000000e+00

 13	1.300000000000000e+00
	3.300000000000000e+00
	1.300000000000000e+00
	-8.008410136151056e-05
	0.000000000000000e+00

 14	1.400000000000000e+00
	3.300000000000000e+00
	1.400000000000000e+00
	-9.470397187838486e-05
	0.000000000000000e+00

 15	1.500000000000000e+00
	3.300000000000000e+00
	1.500000000000000e+00
	-1.098560981978025e-04
	0.000000000000000e+00

 16	1.600000000000000e+00
	3.300000000000000e+00
	1.600000000000000e+00
	-1.254747710732751e-04
	0.000000000000000e+00

 17	1.700000000000000e+00
	3.300000000000000e+00
	1.700000000000000e+00
	-1.415038008283354e-04
	0.000000000000000e+00

 18	1.800000000000000e+00
	3.300000000000000e+00
	1.800000000000000e+00
	-1.578948701999039e-04
	0.000000000000000e+00

 19	1.900000000000001e+00
	3.300000000000000e+00
	1.900000000000001e+00
	-1.746061445886404e-04
	0.000000000000000e+00

 20	2.000000000000000e+00
	3.300000000000000e+00
	2.000000000000000e+00
	-1.916011387095296e-04
	0.000000000000000e+00

 21	2.100000000000001e+00
	3.300000000000000e+00
	2.100000000000001e+00
	-2.088478095170210e-04
	0.000000000000000e+00

 22	2.200000000000001e+00
	3.300000000000000e+00
	2.200000000000001e+00
	-2.263178352346351e-04
	0.000000000000000e+00

 23	2.300000000000001e+00
	3.300000000000000e+00
	2.300000000000001e+00
	-2.439860420668793e-04
	0.000000000000000e+00

 24	2.400000000000001e+00
	3.300000000000000e+00
	2.400000000000001e+00
	-2.618299461207840e-04
	0.000000000000000e+00

 25	2.500000000000001e+00
	3.300000000000000e+00
	2.500000000000001e+00
	-2.798293845049926e-04
	0.000000000000000e+00

 26	2.600000000000001e+00
	3.300000000000000e+00
	2.600000000000001e+00
	-2.979662151889606e-04
	0.000000000000000e+00

 27	2.700000000000001e+00
	3.300000000000000e+00
	2.700000000000001e+00
	-3.162240697318630e-04
	0.000000000000000e+00

 28	2.800000000000001e+00
	3.300000000000000e+00
	2.800000000000001e+00
	-3.345881465439682e-04
	0.000000000000000e+00

 29	2.900000000000001e+00
	3.300000000000000e+00
	2.900000000000001e+00
	-3.530450351614256e-04
	0.000000000000000e+00

 30	3.000000000000001e+00
	3.300000000000000e+00
	3.000000000000001e+00
	-3.715825641705806e-04
	0.000000000000000e+00

 31	3.100000000000001e+00
	3.300000000000000e+00
	3.100000000000001e+00
	-3.901896672009464e-04
	0.000000000000000e+00

 32	3.200000000000002e+00
	3.300000000000000e+00
	3.200000000000002e+00
	-4.088562627280190e-04
	0.000000000000000e+00

 33	3.300000000000002e+00
	3.300000000000000e+00
	3.300000000000002e+00
	-4.275731445848585e-04
	0.000000000000000e+00

