Title: *** spice deck for cell a_characterization_tb{sch} from library testlibrary
Date: Fri Jul 15 16:11:55  2016
Plotname: DC transfer characteristic
Flags: real
No. Variables: 5
No. Points: 34
Variables:
	0	v-sweep	voltage
	1	drain	voltage
	2	gate	voltage
	3	i(vvds)	current
	4	i(vvgs)	current
Values:
 0	0.000000000000000e+00
	3.300000000000000e+00
	0.000000000000000e+00
	-3.346212196220222e-12
	0.000000000000000e+00

 1	1.000000000000000e-01
	3.300000000000000e+00
	1.000000000000000e-01
	-3.486988475742692e-12
	0.000000000000000e+00

 2	2.000000000000000e-01
	3.300000000000000e+00
	2.000000000000000e-01
	-2.421041145339586e-11
	0.000000000000000e+00

 3	3.000000000000000e-01
	3.300000000000000e+00
	3.000000000000000e-01
	-4.400311226504527e-10
	0.000000000000000e+00

 4	4.000000000000000e-01
	3.300000000000000e+00
	4.000000000000000e-01
	-8.430056652741769e-09
	0.000000000000000e+00

 5	5.000000000000000e-01
	3.300000000000000e+00
	5.000000000000000e-01
	-1.257151560629666e-07
	0.000000000000000e+00

 6	6.000000000000000e-01
	3.300000000000000e+00
	6.000000000000000e-01
	-1.161191230281133e-06
	0.000000000000000e+00

 7	7.000000000000000e-01
	3.300000000000000e+00
	7.000000000000000e-01
	-5.695123326265872e-06
	0.000000000000000e+00

 8	7.999999999999999e-01
	3.300000000000000e+00
	7.999999999999999e-01
	-1.509592535953175e-05
	0.000000000000000e+00

 9	8.999999999999999e-01
	3.300000000000000e+00
	8.999999999999999e-01
	-2.777430844824735e-05
	0.000000000000000e+00

 10	9.999999999999999e-01
	3.300000000000000e+00
	9.999999999999999e-01
	-4.239926792992676e-05
	0.000000000000000e+00

 11	1.100000000000000e+00
	3.300000000000000e+00
	1.100000000000000e+00
	-5.836857071184198e-05
	0.000000000000000e+00

 12	1.200000000000000e+00
	3.300000000000000e+00
	1.200000000000000e+00
	-7.536132124608130e-05
	0.000000000000000e+00

 13	1.300000000000000e+00
	3.300000000000000e+00
	1.300000000000000e+00
	-9.316020463900898e-05
	0.000000000000000e+00

 14	1.400000000000000e+00
	3.300000000000000e+00
	1.400000000000000e+00
	-1.116016325597435e-04
	0.000000000000000e+00

 15	1.500000000000000e+00
	3.300000000000000e+00
	1.500000000000000e+00
	-1.305579438897198e-04
	0.000000000000000e+00

 16	1.600000000000000e+00
	3.300000000000000e+00
	1.600000000000000e+00
	-1.499278217829136e-04
	0.000000000000000e+00

 17	1.700000000000000e+00
	3.300000000000000e+00
	1.700000000000000e+00
	-1.696298286990583e-04
	0.000000000000000e+00

 18	1.800000000000000e+00
	3.300000000000000e+00
	1.800000000000000e+00
	-1.895977284180894e-04
	0.000000000000000e+00

 19	1.900000000000001e+00
	3.300000000000000e+00
	1.900000000000001e+00
	-2.097770275693023e-04
	0.000000000000000e+00

 20	2.000000000000000e+00
	3.300000000000000e+00
	2.000000000000000e+00
	-2.301223902176908e-04
	0.000000000000000e+00

 21	2.100000000000001e+00
	3.300000000000000e+00
	2.100000000000001e+00
	-2.505956883762650e-04
	0.000000000000000e+00

 22	2.200000000000001e+00
	3.300000000000000e+00
	2.200000000000001e+00
	-2.711645215507374e-04
	0.000000000000000e+00

 23	2.300000000000001e+00
	3.300000000000000e+00
	2.300000000000001e+00
	-2.918010860248899e-04
	0.000000000000000e+00

 24	2.400000000000001e+00
	3.300000000000000e+00
	2.400000000000001e+00
	-3.124813074060206e-04
	0.000000000000000e+00

 25	2.500000000000001e+00
	3.300000000000000e+00
	2.500000000000001e+00
	-3.331841726801343e-04
	0.000000000000000e+00

 26	2.600000000000001e+00
	3.300000000000000e+00
	2.600000000000001e+00
	-3.538912141363149e-04
	0.000000000000000e+00

 27	2.700000000000001e+00
	3.300000000000000e+00
	2.700000000000001e+00
	-3.745861089994307e-04
	0.000000000000000e+00

 28	2.800000000000001e+00
	3.300000000000000e+00
	2.800000000000001e+00
	-3.952543670315833e-04
	0.000000000000000e+00

 29	2.900000000000001e+00
	3.300000000000000e+00
	2.900000000000001e+00
	-4.158830846323625e-04
	0.000000000000000e+00

 30	3.000000000000001e+00
	3.300000000000000e+00
	3.000000000000001e+00
	-4.364607486468941e-04
	0.000000000000000e+00

 31	3.100000000000001e+00
	3.300000000000000e+00
	3.100000000000001e+00
	-4.569770768010351e-04
	0.000000000000000e+00

 32	3.200000000000002e+00
	3.300000000000000e+00
	3.200000000000002e+00
	-4.774228845318973e-04
	0.000000000000000e+00

 33	3.300000000000002e+00
	3.300000000000000e+00
	3.300000000000002e+00
	-4.977899703253463e-04
	0.000000000000000e+00

